# Frequency, S11, S12, S21, S22
9.540000000000000000e+07,-5.958252221299999984e-01,-6.567627767199999766e+01,-6.576730325299999436e+01,-5.977869657100000067e-01
9.540400320256204903e+07,-5.937353984600000079e-01,-6.544223857800000133e+01,-6.436882908799999825e+01,-5.942153259000000354e-01
9.540800640512409806e+07,-5.966200796399999673e-01,-6.502476987699999711e+01,-6.505469833700000493e+01,-5.932624060800000265e-01
9.541200960768614709e+07,-5.957556324099999578e-01,-6.456173209300000337e+01,-6.550803007499999353e+01,-5.933935946799999694e-01
9.541601281024819613e+07,-5.947597283500000165e-01,-6.484166087500000231e+01,-6.618252443800000151e+01,-5.932970125300000008e-01
9.542001601281024516e+07,-5.964662017799999827e-01,-6.519306800500000065e+01,-6.531279922199999532e+01,-5.924189189699999858e-01
9.542401921537229419e+07,-5.953252487000000315e-01,-6.556878774899999485e+01,-6.536270396499999435e+01,-5.940987384999999454e-01
9.542802241793434322e+07,-5.966301815600000280e-01,-6.612505732600000385e+01,-6.532514731800000618e+01,-5.944253286599999742e-01
9.543202562049639225e+07,-5.965911124699999624e-01,-6.578065365800000563e+01,-6.632753775800000540e+01,-5.946440306700000455e-01
9.543602882305844128e+07,-5.946552995699999622e-01,-6.508909859099999551e+01,-6.533628928699999960e+01,-5.939726604699999690e-01
9.544003202562049031e+07,-5.962369794999999861e-01,-6.560181135000000552e+01,-6.480409793799999818e+01,-5.960837307699999865e-01
9.544403522818253934e+07,-5.958044472400000346e-01,-6.519132666900000572e+01,-6.496669460600000434e+01,-5.953055022300000054e-01
9.544803843074458838e+07,-5.960574401199999484e-01,-6.537755748799999367e+01,-6.469493844199999444e+01,-5.940570979599999468e-01
9.545204163330665231e+07,-5.948837044700000520e-01,-6.533113496500000394e+01,-6.545886549300000468e+01,-5.947272041700000234e-01
9.545604483586870134e+07,-5.936490992699999802e-01,-6.521033008999999936e+01,-6.531360896299999297e+01,-5.955938776800000500e-01
9.546004803843075037e+07,-5.965513873200000150e-01,-6.525533262300000104e+01,-6.590982638299999508e+01,-5.941200448300000270e-01
9.546405124099279940e+07,-5.990327599600000497e-01,-6.620399695999999778e+01,-6.538039172400000609e+01,-5.936709614099999754e-01
9.546805444355484843e+07,-5.972606493900000091e-01,-6.509759406999999953e+01,-6.456712278999999910e+01,-5.955151864500000114e-01
9.547205764611689746e+07,-5.958831651899999526e-01,-6.486206254900000090e+01,-6.504039063400000487e+01,-5.949508746999999653e-01
9.547606084867894650e+07,-5.950223275799999545e-01,-6.563084060200000636e+01,-6.524328049800000429e+01,-5.952433518799999934e-01
9.548006405124099553e+07,-5.967210197000000216e-01,-6.524333293300000491e+01,-6.541089773699999910e+01,-5.945946543100000259e-01
9.548406725380304456e+07,-5.967387775500000435e-01,-6.573203948799999807e+01,-6.345699276100000219e+01,-5.956100497399999805e-01
9.548807045636509359e+07,-5.975949667800000142e-01,-6.585716155699999774e+01,-6.500646627300000091e+01,-5.957551177800000097e-01
9.549207365892714262e+07,-5.954035889200000042e-01,-6.538000771000000100e+01,-6.615000163199999861e+01,-5.980569395400000543e-01
9.549607686148919165e+07,-5.973522255900000077e-01,-6.417356563200000608e+01,-6.648950704799999301e+01,-5.981076214399999591e-01
9.550008006405124068e+07,-5.980209670999999672e-01,-6.547584173200000635e+01,-6.481107720500000369e+01,-5.956970349000000331e-01
9.550408326661328971e+07,-5.983814084099999819e-01,-6.486745641599999601e+01,-6.577075613200000248e+01,-5.957836558300000362e-01
9.550808646917533875e+07,-5.982744444800000005e-01,-6.508945298300000104e+01,-6.518774643099999366e+01,-5.970666132899999923e-01
9.551208967173738778e+07,-5.953566811399999548e-01,-6.490778696700000694e+01,-6.585692575699999907e+01,-5.972870044800000500e-01
9.551609287429943681e+07,-5.974950203000000126e-01,-6.556663974600000699e+01,-6.580988903899999798e+01,-5.966910798600000287e-01
9.552009607686148584e+07,-5.984441059799999740e-01,-6.494422246700000301e+01,-6.556310581099999979e+01,-5.972592737999999901e-01
9.552409927942353487e+07,-5.973480251999999657e-01,-6.408751217799999722e+01,-6.551114782300000172e+01,-5.956989023800000060e-01
9.552810248198558390e+07,-5.990138971499999743e-01,-6.491425811999999951e+01,-6.504675424900000280e+01,-5.980659477799999957e-01
9.553210568454763293e+07,-5.997676116100000288e-01,-6.548615470699999719e+01,-6.606929352500000618e+01,-5.979677730900000432e-01
9.553610888710968196e+07,-5.999650136899999930e-01,-6.550764162000000113e+01,-6.516027855500000499e+01,-5.978792154500000011e-01
9.554011208967173100e+07,-6.006410769100000158e-01,-6.479756834900000229e+01,-6.479490286099999707e+01,-5.994020954100000020e-01
9.554411529223378003e+07,-5.981093723699999476e-01,-6.481617659799999842e+01,-6.557347441800000354e+01,-6.002978703700000418e-01
9.554811849479584396e+07,-5.999262662400000057e-01,-6.565301144299999692e+01,-6.552586771800000065e+01,-5.988650897399999673e-01
9.555212169735789299e+07,-6.007974358200000031e-01,-6.559852809100000570e+01,-6.538249934799999608e+01,-5.979733557999999949e-01
9.555612489991994202e+07,-5.999530605599999733e-01,-6.522416562700000497e+01,-6.387062266699999924e+01,-6.004356729399999981e-01
9.556012810248199105e+07,-6.019245151500000057e-01,-6.509234413100000438e+01,-6.578828035399999408e+01,-5.994513860100000313e-01
9.556413130504404008e+07,-5.996301265200000286e-01,-6.577720566600000041e+01,-6.538686757300000352e+01,-6.001768242899999661e-01
9.556813450760608912e+07,-6.002486256300000322e-01,-6.450902198800000065e+01,-6.534241385699999682e+01,-6.011115432800000491e-01
9.557213771016813815e+07,-6.010300110999999834e-01,-6.422537978100000089e+01,-6.375097813699999705e+01,-5.987998610100000452e-01
9.557614091273018718e+07,-6.026468485899999505e-01,-6.573486986300000012e+01,-6.487737533799999312e+01,-5.989530746200000255e-01
9.558014411529223621e+07,-6.016349189799999886e-01,-6.428423646800000313e+01,-6.568779999299999872e+01,-5.994271715000000222e-01
9.558414731785428524e+07,-6.017221397199999933e-01,-6.426572426200000621e+01,-6.468301632200000029e+01,-5.987248391099999623e-01
9.558815052041633427e+07,-6.049072198399999545e-01,-6.383992125200000345e+01,-6.521354242399999634e+01,-6.020615002700000495e-01
9.559215372297838330e+07,-6.025024277599999589e-01,-6.550109183399999324e+01,-6.484898601400000473e+01,-6.013353664899999673e-01
9.559615692554043233e+07,-6.044383568800000273e-01,-6.602615310299999862e+01,-6.496609601900000541e+01,-6.015528046500000503e-01
9.560016012810248137e+07,-6.002381381200000421e-01,-6.505723758999999973e+01,-6.462160624899999561e+01,-6.017156602100000029e-01
9.560416333066453040e+07,-6.046106466099999688e-01,-6.493427352899999505e+01,-6.631110419200000194e+01,-6.015430834099999569e-01
9.560816653322657943e+07,-6.048462340500000423e-01,-6.496112615399999868e+01,-6.565229225900000642e+01,-6.021243540399999761e-01
9.561216973578862846e+07,-6.038087545200000461e-01,-6.475485135399999592e+01,-6.548676303199999893e+01,-6.020541424599999969e-01
9.561617293835067749e+07,-6.062548052599999737e-01,-6.564915200400000117e+01,-6.560908498099999520e+01,-6.027538873300000155e-01
9.562017614091272652e+07,-6.048832945600000066e-01,-6.492862795599999970e+01,-6.516348803399999667e+01,-6.025108135100000206e-01
9.562417934347477555e+07,-6.047182554500000196e-01,-6.539307088399999657e+01,-6.512617079100000694e+01,-6.044068821800000491e-01
9.562818254603682458e+07,-6.041775043899999531e-01,-6.459893042199999513e+01,-6.476715601499999764e+01,-6.042816197200000516e-01
9.563218574859887362e+07,-6.054786317800000539e-01,-6.569811067700000251e+01,-6.560389802999999631e+01,-6.036220129599999540e-01
9.563618895116092265e+07,-6.067087995700000125e-01,-6.461385078300000373e+01,-6.575711526099999560e+01,-6.054860675700000083e-01
9.564019215372297168e+07,-6.057275723899999686e-01,-6.465351276200000541e+01,-6.483680675700000506e+01,-6.051730061100000224e-01
9.564419535628502071e+07,-6.046252423000000320e-01,-6.481794046000000264e+01,-6.464821551999999372e+01,-6.030965321500000309e-01
9.564819855884708464e+07,-6.048094524799999538e-01,-6.570217055300000197e+01,-6.500325834599999553e+01,-6.037816083600000550e-01
9.565220176140913367e+07,-6.059143866799999723e-01,-6.558762814799999319e+01,-6.452811007500000073e+01,-6.055497904800000164e-01
9.565620496397118270e+07,-6.065029053999999586e-01,-6.627741765899999393e+01,-6.409721046999999317e+01,-6.032939915499999639e-01
9.566020816653323174e+07,-6.075008886599999602e-01,-6.485515705599999592e+01,-6.568521447000000535e+01,-6.058079462700000084e-01
9.566421136909528077e+07,-6.060947309699999952e-01,-6.472486615600000448e+01,-6.456011273199999323e+01,-6.042604088699999876e-01
9.566821457165732980e+07,-6.062070628600000344e-01,-6.500947849499999620e+01,-6.452704158500000631e+01,-6.062198844799999708e-01
9.567221777421937883e+07,-6.076581200599999733e-01,-6.509723054100000184e+01,-6.505409367800000098e+01,-6.052143246200000215e-01
9.567622097678142786e+07,-6.064860560200000528e-01,-6.472069109400000286e+01,-6.499595947199999557e+01,-6.048724646199999944e-01
9.568022417934347689e+07,-6.082147970400000325e-01,-6.562606730100000618e+01,-6.510137950600000067e+01,-6.041706143299999665e-01
9.568422738190552592e+07,-6.064490476199999591e-01,-6.552830798300000481e+01,-6.496585358000000099e+01,-6.052829909100000405e-01
9.568823058446757495e+07,-6.065675230200000545e-01,-6.508755942700000219e+01,-6.553207084699999996e+01,-6.056516217099999766e-01
9.569223378702962399e+07,-6.070315004699999850e-01,-6.479598807099999647e+01,-6.400198338900000294e+01,-6.073404774699999731e-01
9.569623698959167302e+07,-6.075002171000000173e-01,-6.574225208999999381e+01,-6.539231800100000669e+01,-6.053883394100000315e-01
9.570024019215372205e+07,-6.091830488599999649e-01,-6.571193968999999413e+01,-6.524697245400000156e+01,-6.058613284899999618e-01
9.570424339471577108e+07,-6.094716036299999695e-01,-6.498467988100000525e+01,-6.495182053099999564e+01,-6.073946642099999904e-01
9.570824659727782011e+07,-6.070522624699999925e-01,-6.513298497399999576e+01,-6.387682990500000102e+01,-6.060984360300000207e-01
9.571224979983986914e+07,-6.082126032200000365e-01,-6.588352034099999344e+01,-6.548124985699999456e+01,-6.061366795499999460e-01
9.571625300240191817e+07,-6.075992636899999466e-01,-6.580639171299999646e+01,-6.558432467400000121e+01,-6.059645181399999636e-01
9.572025620496396720e+07,-6.080982058499999621e-01,-6.534571868599999789e+01,-6.419918670799999916e+01,-6.060659109399999522e-01
9.572425940752601624e+07,-6.074660724199999473e-01,-6.599019567499999539e+01,-6.565996300099999416e+01,-6.078844520399999674e-01
9.572826261008806527e+07,-6.087070231500000261e-01,-6.585726095100000066e+01,-6.619871588700000586e+01,-6.060602895100000165e-01
9.573226581265011430e+07,-6.096655380400000102e-01,-6.543478595199999859e+01,-6.469344947999999818e+01,-6.054452124100000443e-01
9.573626901521216333e+07,-6.070204475999999572e-01,-6.505015917699999761e+01,-6.584775920500000268e+01,-6.057356959899999893e-01
9.574027221777421236e+07,-6.082076788500000442e-01,-6.570988778599999591e+01,-6.605626725599999816e+01,-6.069060335899999492e-01
9.574427542033627629e+07,-6.086492863000000364e-01,-6.663963912299999492e+01,-6.625934207400000275e+01,-6.056505425099999451e-01
9.574827862289832532e+07,-6.079394005299999515e-01,-6.507135369700000638e+01,-6.561036599400000568e+01,-6.061830933799999821e-01
9.575228182546037436e+07,-6.092080530800000338e-01,-6.558587990799999545e+01,-6.420244678100000613e+01,-6.071322123200000309e-01
9.575628502802242339e+07,-6.079134971499999818e-01,-6.537403783499999577e+01,-6.498463815200000226e+01,-6.059867166300000330e-01
9.576028823058447242e+07,-6.084478512000000006e-01,-6.661829696700000625e+01,-6.576152885300000150e+01,-6.053024075399999759e-01
9.576429143314652145e+07,-6.071702243500000096e-01,-6.561242180700000404e+01,-6.418299156000000494e+01,-6.040210923300000090e-01
9.576829463570857048e+07,-6.098987226800000050e-01,-6.610935553199999504e+01,-6.545659457300000383e+01,-6.063517745399999992e-01
9.577229783827061951e+07,-6.054780671199999631e-01,-6.600813311100000647e+01,-6.378951422400000126e+01,-6.052522749900000054e-01
9.577630104083266854e+07,-6.074684951700000113e-01,-6.519192800099999374e+01,-6.625780727199999376e+01,-6.060952442500000537e-01
9.578030424339471757e+07,-6.080161541999999919e-01,-6.499846220899999594e+01,-6.558229130899999859e+01,-6.048360072999999781e-01
9.578430744595676661e+07,-6.071519311999999946e-01,-6.521910146599999791e+01,-6.546509701700000505e+01,-6.042057906500000186e-01
9.578831064851881564e+07,-6.088200011700000136e-01,-6.546204835899999352e+01,-6.498382177300000251e+01,-6.052522592300000337e-01
9.579231385108086467e+07,-6.064380938700000279e-01,-6.557168822399999897e+01,-6.452240863699999807e+01,-6.049817875199999806e-01
9.579631705364291370e+07,-6.081337697199999948e-01,-6.462713825800000222e+01,-6.592864488600000072e+01,-6.051675091399999484e-01
9.580032025620496273e+07,-6.069289926900000021e-01,-6.547971370800000557e+01,-6.520761087799999700e+01,-6.048018132700000438e-01
9.580432345876701176e+07,-6.079760356800000265e-01,-6.561603839100000357e+01,-6.343322557399999795e+01,-6.029837906899999656e-01
9.580832666132906079e+07,-6.061510509699999938e-01,-6.543665517499999851e+01,-6.424363778900000455e+01,-6.033908840299999632e-01
9.581232986389110982e+07,-6.059130461599999684e-01,-6.519923983299999293e+01,-6.434458260200000268e+01,-6.034372499900000353e-01
9.581633306645315886e+07,-6.069260840400000356e-01,-6.579816996600000323e+01,-6.622124050700000453e+01,-6.047142317200000505e-01
9.582033626901520789e+07,-6.060819932500000062e-01,-6.578810570500000665e+01,-6.493881147999999826e+01,-6.061658437600000449e-01
9.582433947157725692e+07,-6.090189773299999887e-01,-6.544513608900000179e+01,-6.525006424400000071e+01,-6.041463366099999455e-01
9.582834267413930595e+07,-6.054494191499999456e-01,-6.476262122599999316e+01,-6.484652622400000155e+01,-6.041325713099999772e-01
9.583234587670135498e+07,-6.060895962500000289e-01,-6.463686355900000535e+01,-6.506706100700000661e+01,-6.053115906599999541e-01
9.583634907926340401e+07,-6.050022002499999552e-01,-6.480394387100000131e+01,-6.500484547499999621e+01,-6.034658247099999873e-01
9.584035228182545304e+07,-6.061007150299999591e-01,-6.562610533000000146e+01,-6.611215008400000670e+01,-6.040973921300000216e-01
9.584435548438751698e+07,-6.054407737300000480e-01,-6.514676700799999765e+01,-6.496609993399999894e+01,-6.033361948400000063e-01
9.584835868694956601e+07,-6.040823389899999674e-01,-6.465240041799999915e+01,-6.469130133100000535e+01,-6.024109840200000399e-01
9.585236188951161504e+07,-6.060307518899999968e-01,-6.594659298499999522e+01,-6.396389819299999857e+01,-6.023134814099999623e-01
9.585636509207366407e+07,-6.038341434999999757e-01,-6.479463986599999714e+01,-6.634191398999999478e+01,-6.050848241899999813e-01
9.586036829463571310e+07,-6.048274000100000158e-01,-6.484581434300000069e+01,-6.611462210300000208e+01,-6.010855076700000188e-01
9.586437149719776213e+07,-6.074931015300000237e-01,-6.518814202500000476e+01,-6.496129657000000179e+01,-6.014244304600000479e-01
9.586837469975981116e+07,-6.048302056700000096e-01,-6.522705316100000061e+01,-6.624848242999999570e+01,-6.037565398199999933e-01
9.587237790232186019e+07,-6.062457554000000304e-01,-6.621628281099999924e+01,-6.546416548599999885e+01,-6.007265922500000244e-01
9.587638110488390923e+07,-6.066727570100000078e-01,-6.605105655500000239e+01,-6.717627835300000072e+01,-6.040574373099999450e-01
9.588038430744595826e+07,-6.034071964599999616e-01,-6.507072326499999804e+01,-6.429146993499999496e+01,-6.026104966899999971e-01
9.588438751000800729e+07,-6.048738706099999751e-01,-6.602786320699999578e+01,-6.456446259599999848e+01,-5.997838494699999634e-01
9.588839071257005632e+07,-6.043669132100000230e-01,-6.727883295799999530e+01,-6.522338761400000351e+01,-6.037325108400000140e-01
9.589239391513210535e+07,-6.037574328300000515e-01,-6.634521363999999721e+01,-6.553101181300000633e+01,-6.026358650399999961e-01
9.589639711769415438e+07,-6.052684740799999519e-01,-6.499835403299999825e+01,-6.535057107400000120e+01,-6.018216090700000409e-01
9.590040032025620341e+07,-6.049739471299999671e-01,-6.506346816399999966e+01,-6.610303948199999979e+01,-6.038273049200000298e-01
9.590440352281825244e+07,-6.025566658600000070e-01,-6.459753121299999634e+01,-6.444390044300000397e+01,-6.030163967099999578e-01
9.590840672538030148e+07,-6.059982487599999690e-01,-6.519032491900000537e+01,-6.463112971699999321e+01,-6.014233726200000074e-01
9.591240992794235051e+07,-6.032942244800000298e-01,-6.563737958599999445e+01,-6.471024570900000583e+01,-6.026402562899999538e-01
9.591641313050439954e+07,-6.036008182700000058e-01,-6.565601612700000089e+01,-6.474187577499999691e+01,-6.027417738500000510e-01
9.592041633306644857e+07,-6.032869082299999741e-01,-6.540995347800000559e+01,-6.576158470999999395e+01,-6.033539096600000207e-01
9.592441953562849760e+07,-6.051536045500000016e-01,-6.518556053300000031e+01,-6.548919563699999458e+01,-6.020007418399999644e-01
9.592842273819054663e+07,-6.048162871100000171e-01,-6.545262366299999712e+01,-6.522473116000000459e+01,-6.026372108799999960e-01
9.593242594075259566e+07,-6.044525200700000545e-01,-6.583080558899999346e+01,-6.516950430699999686e+01,-6.021116205500000040e-01
9.593642914331464469e+07,-6.038164101099999792e-01,-6.472969665300000486e+01,-6.462768093500000077e+01,-6.022297134899999849e-01
9.594043234587670863e+07,-6.042019248400000153e-01,-6.611676383399999679e+01,-6.617026335200000631e+01,-6.024941149300000465e-01
9.594443554843875766e+07,-6.040124681599999823e-01,-6.605937359899999706e+01,-6.488803488599999980e+01,-6.047006339499999550e-01
9.594843875100080669e+07,-6.029968208799999507e-01,-6.478896407300000249e+01,-6.546971537999999669e+01,-6.031391121700000468e-01
9.595244195356285572e+07,-6.052242403900000012e-01,-6.537095810099999937e+01,-6.514902297599999770e+01,-6.022305308900000043e-01
9.595644515612490475e+07,-6.054715909500000270e-01,-6.568598031099999446e+01,-6.563363963199999773e+01,-6.037087665400000525e-01
9.596044835868695378e+07,-6.061347346900000099e-01,-6.490194697900000165e+01,-6.464025383499999577e+01,-6.057528976899999584e-01
9.596445156124900281e+07,-6.048537074299999983e-01,-6.580126581099999328e+01,-6.576288949000000628e+01,-6.050727171999999987e-01
9.596845476381105185e+07,-6.061819178699999755e-01,-6.418530811799999469e+01,-6.526475262600000349e+01,-6.051688044099999830e-01
9.597245796637310088e+07,-6.061805902100000365e-01,-6.496438837700000590e+01,-6.624173997900000188e+01,-6.069576085000000232e-01
9.597646116893514991e+07,-6.047394712600000499e-01,-6.546997617300000627e+01,-6.523794575700000564e+01,-6.051259903400000306e-01
9.598046437149719894e+07,-6.054176783400000428e-01,-6.664464747600000294e+01,-6.607979822900000499e+01,-6.053046316700000373e-01
9.598446757405924797e+07,-6.057561287299999542e-01,-6.354228290999999729e+01,-6.396000870700000007e+01,-6.067070057600000288e-01
9.598847077662129700e+07,-6.092488116299999978e-01,-6.425298482200000194e+01,-6.692230022399999712e+01,-6.052021331200000409e-01
9.599247397918334603e+07,-6.071861960100000122e-01,-6.620102589299999352e+01,-6.661418149099999653e+01,-6.055055006599999734e-01
9.599647718174539506e+07,-6.080735344600000092e-01,-6.629838513200000705e+01,-6.470790655499999389e+01,-6.076285510500000209e-01
9.600048038430744410e+07,-6.059685366200000534e-01,-6.576904376100000604e+01,-6.583676739300000236e+01,-6.075334123000000197e-01
9.600448358686949313e+07,-6.074991294999999569e-01,-6.519127600999999572e+01,-6.429839228100000526e+01,-6.064301665500000382e-01
9.600848678943154216e+07,-6.082886514099999919e-01,-6.459270945400000130e+01,-6.698510722800000394e+01,-6.093477451700000103e-01
9.601248999199359119e+07,-6.070645383299999587e-01,-6.489800825899999381e+01,-6.451725571400000092e+01,-6.085367395599999840e-01
