# Frequency, S11, S12, S21, S22
9.540000000000000000e+07,-5.883109166000000112e-01,-6.668107339700000580e+01,-6.761714611799999375e+01,-5.971481857899999524e-01
9.540400320256204903e+07,-5.901876030199999512e-01,-6.576778203400000677e+01,-6.627255305399999941e+01,-5.926429466000000534e-01
9.540800640512409806e+07,-5.879347872000000308e-01,-6.534201281100000358e+01,-6.497106719100000305e+01,-5.950418819999999664e-01
9.541200960768614709e+07,-5.873532251799999937e-01,-6.490159508300000368e+01,-6.600256193200000610e+01,-5.941429232299999530e-01
9.541601281024819613e+07,-5.886776017100000535e-01,-6.460875022099999399e+01,-6.565673739499999328e+01,-5.941365889799999911e-01
9.542001601281024516e+07,-5.899224212300000492e-01,-6.545393770900000163e+01,-6.496881098100000429e+01,-5.948643213300000010e-01
9.542401921537229419e+07,-5.876387902099999838e-01,-6.500509215700000709e+01,-6.697971913799999299e+01,-5.944054120599999713e-01
9.542802241793434322e+07,-5.893633711600000380e-01,-6.556331442600000514e+01,-6.616144712700000241e+01,-5.939437753699999822e-01
9.543202562049639225e+07,-5.865739390499999928e-01,-6.545523858299999631e+01,-6.631075852099999679e+01,-5.947190474900000412e-01
9.543602882305844128e+07,-5.897406435800000013e-01,-6.646003190599999755e+01,-6.611653997099999458e+01,-5.935468344600000057e-01
9.544003202562049031e+07,-5.878219527300000413e-01,-6.538802840500000002e+01,-6.500910550400000432e+01,-5.948274429300000055e-01
9.544403522818253934e+07,-5.904350962800000158e-01,-6.538044205399999953e+01,-6.356447250899999801e+01,-5.956968136700000471e-01
9.544803843074458838e+07,-5.880037420200000531e-01,-6.446828609300000323e+01,-6.592332168000000081e+01,-5.947293757599999564e-01
9.545204163330665231e+07,-5.890995647800000290e-01,-6.513561315399999785e+01,-6.578925388999999768e+01,-5.950244802999999916e-01
9.545604483586870134e+07,-5.907774331199999729e-01,-6.452119219700000485e+01,-6.613861022599999728e+01,-5.941650679500000143e-01
9.546004803843075037e+07,-5.878131285400000072e-01,-6.602112722699999381e+01,-6.506254161100000033e+01,-5.954333416299999460e-01
9.546405124099279940e+07,-5.896201627399999534e-01,-6.603170228400000497e+01,-6.441987463099999900e+01,-5.939506846600000056e-01
9.546805444355484843e+07,-5.884540686100000473e-01,-6.567617744899999366e+01,-6.471957757100000208e+01,-5.945773536399999726e-01
9.547205764611689746e+07,-5.898915830299999996e-01,-6.439134400499999344e+01,-6.627610571200000322e+01,-5.952381917600000349e-01
9.547606084867894650e+07,-5.917758755399999959e-01,-6.483571942800000443e+01,-6.402371982500000058e+01,-5.958528756400000015e-01
9.548006405124099553e+07,-5.919492610600000093e-01,-6.450466416400000469e+01,-6.414610505999999646e+01,-5.968225797199999683e-01
9.548406725380304456e+07,-5.906701528800000212e-01,-6.465749756699999296e+01,-6.501929335799999876e+01,-5.955290861499999977e-01
9.548807045636509359e+07,-5.910784902000000285e-01,-6.464481000199999983e+01,-6.601596190899999783e+01,-5.953553669500000201e-01
9.549207365892714262e+07,-5.910757918200000294e-01,-6.623229640200000290e+01,-6.491092899699999919e+01,-5.946997148199999472e-01
9.549607686148919165e+07,-5.905405947499999808e-01,-6.510730086600000277e+01,-6.523883827699999927e+01,-5.964618265200000158e-01
9.550008006405124068e+07,-5.908681133900000049e-01,-6.470867158199999380e+01,-6.555053176799999903e+01,-5.974740095699999642e-01
9.550408326661328971e+07,-5.912222682600000168e-01,-6.602251335699999402e+01,-6.586830102800000475e+01,-5.964451014499999593e-01
9.550808646917533875e+07,-5.898460641599999610e-01,-6.538671504299999526e+01,-6.566201530200000036e+01,-5.969081404799999602e-01
9.551208967173738778e+07,-5.918862920999999888e-01,-6.446316109200000710e+01,-6.528552854400000172e+01,-5.967088846100000454e-01
9.551609287429943681e+07,-5.929016527299999506e-01,-6.415674549599999921e+01,-6.548530661899999927e+01,-6.004853120599999983e-01
9.552009607686148584e+07,-5.923247454900000264e-01,-6.491305361199999879e+01,-6.487737062700000479e+01,-5.954402296499999858e-01
9.552409927942353487e+07,-5.913640270500000184e-01,-6.465598189099999615e+01,-6.526477581499999303e+01,-5.983319709100000106e-01
9.552810248198558390e+07,-5.918612976799999537e-01,-6.347597614899999741e+01,-6.409735240199999851e+01,-5.978818126699999569e-01
9.553210568454763293e+07,-5.919184920900000257e-01,-6.401314815499999611e+01,-6.396870305600000250e+01,-5.962891593700000437e-01
9.553610888710968196e+07,-5.918836810800000015e-01,-6.438910534699999744e+01,-6.474434696299999814e+01,-5.968177582300000505e-01
9.554011208967173100e+07,-5.933880713900000492e-01,-6.351090186700000118e+01,-6.343452378199999941e+01,-5.990185362300000094e-01
9.554411529223378003e+07,-5.935473606000000180e-01,-6.303162280299999765e+01,-6.337314963899999753e+01,-5.994036517999999925e-01
9.554811849479584396e+07,-5.928737606399999693e-01,-6.296988352599999672e+01,-6.328510889799999717e+01,-5.981380501399999883e-01
9.555212169735789299e+07,-5.937844000199999916e-01,-6.365732756199999898e+01,-6.330335578300000066e+01,-5.975818783799999867e-01
9.555612489991994202e+07,-5.941374299399999614e-01,-6.273386314399999719e+01,-6.340246687599999831e+01,-5.990772404299999909e-01
9.556012810248199105e+07,-5.931591962100000170e-01,-6.354189234700000100e+01,-6.202545072800000270e+01,-5.999735109699999569e-01
9.556413130504404008e+07,-5.948418278199999465e-01,-6.216939107400000353e+01,-6.410108203000000060e+01,-5.993183266699999567e-01
9.556813450760608912e+07,-5.951115451399999756e-01,-6.293185892200000353e+01,-6.334989402299999739e+01,-6.008910413200000411e-01
9.557213771016813815e+07,-5.952039610599999531e-01,-6.302400474600000280e+01,-6.228751451499999803e+01,-5.999763019099999539e-01
9.557614091273018718e+07,-5.939589361399999490e-01,-6.290542654600000105e+01,-6.167162374600000163e+01,-6.014336471100000248e-01
9.558014411529223621e+07,-5.946672361899999482e-01,-6.279277868500000181e+01,-6.238808013799999941e+01,-5.999248487299999599e-01
9.558414731785428524e+07,-5.951144242700000531e-01,-6.214760850500000089e+01,-6.116525612600000272e+01,-6.014726643700000208e-01
9.558815052041633427e+07,-5.962062582599999550e-01,-6.164663346500000074e+01,-6.219938083000000262e+01,-6.008025448999999574e-01
9.559215372297838330e+07,-5.968179082100000254e-01,-6.140350291899999746e+01,-6.157788662899999821e+01,-6.015736673699999537e-01
9.559615692554043233e+07,-5.967287176600000187e-01,-6.165183966899999746e+01,-6.135687840300000317e+01,-6.004999874999999987e-01
9.560016012810248137e+07,-5.981135053799999657e-01,-6.126840589700000095e+01,-6.113419588200000021e+01,-6.038607716799999636e-01
9.560416333066453040e+07,-5.962939452400000118e-01,-6.195810867299999813e+01,-6.157766684399999946e+01,-6.019144457099999679e-01
9.560816653322657943e+07,-5.963085239400000015e-01,-6.075428662499999888e+01,-6.274567772200000348e+01,-6.028439438699999542e-01
9.561216973578862846e+07,-5.969413319499999870e-01,-6.083369082400000138e+01,-6.088595340700000236e+01,-6.031999427699999972e-01
9.561617293835067749e+07,-5.985404449200000254e-01,-6.190200058199999944e+01,-6.205727495400000038e+01,-6.017146449400000430e-01
9.562017614091272652e+07,-5.953852273999999944e-01,-6.151920586699999660e+01,-6.087991659899999775e+01,-6.035163181199999505e-01
9.562417934347477555e+07,-5.980678020899999892e-01,-6.183206337000000019e+01,-6.107516943400000287e+01,-6.040481425799999471e-01
9.562818254603682458e+07,-5.996264085600000460e-01,-6.182902909199999897e+01,-6.283094109700000018e+01,-6.043972651200000268e-01
9.563218574859887362e+07,-5.983651658899999948e-01,-6.212835170799999673e+01,-6.147313210200000100e+01,-6.056279380500000364e-01
9.563618895116092265e+07,-5.978071518099999926e-01,-6.281744074099999864e+01,-6.213204888799999992e+01,-6.053981201100000487e-01
9.564019215372297168e+07,-5.992990486000000505e-01,-6.237149438699999848e+01,-6.327734641499999668e+01,-6.038423877299999853e-01
9.564419535628502071e+07,-5.977796367400000088e-01,-6.345626555500000165e+01,-6.378547530400000198e+01,-6.051214123400000533e-01
9.564819855884708464e+07,-6.016617048000000301e-01,-6.227036997999999812e+01,-6.455136709900000369e+01,-6.041935838799999958e-01
9.565220176140913367e+07,-6.007170729099999829e-01,-6.360346855200000249e+01,-6.468010046099999499e+01,-6.033418594499999621e-01
9.565620496397118270e+07,-5.986955210000000083e-01,-6.520215119099999868e+01,-6.414816027700000234e+01,-6.048390389800000211e-01
9.566020816653323174e+07,-6.003550565499999880e-01,-6.510854612500000371e+01,-6.428197086800000193e+01,-6.052306039999999498e-01
9.566421136909528077e+07,-5.999851321100000412e-01,-6.604229456299999867e+01,-6.481778965099999823e+01,-6.054973309600000242e-01
9.566821457165732980e+07,-5.994309256500000016e-01,-6.498598675700000626e+01,-6.715990512199999785e+01,-6.071365185999999525e-01
9.567221777421937883e+07,-5.997906214199999475e-01,-6.617256508699999529e+01,-6.715065834000000677e+01,-6.052135104200000448e-01
9.567622097678142786e+07,-6.001641900599999913e-01,-6.840844445099999405e+01,-6.568941908099999694e+01,-6.053514036699999545e-01
9.568022417934347689e+07,-5.995747950599999987e-01,-6.872342363799999987e+01,-6.882133065799999372e+01,-6.054734032499999863e-01
9.568422738190552592e+07,-6.011024154999999869e-01,-6.806270331000000340e+01,-7.075351302599999315e+01,-6.039926215599999981e-01
9.568823058446757495e+07,-6.003048345400000541e-01,-7.131788367100000414e+01,-6.979867763999999397e+01,-6.054092371699999475e-01
9.569223378702962399e+07,-5.999452899899999636e-01,-7.111931727900000055e+01,-7.099000453600000071e+01,-6.074254091799999866e-01
9.569623698959167302e+07,-6.015721557100000005e-01,-7.526841878999999835e+01,-7.293099466399999642e+01,-6.055284553699999961e-01
9.570024019215372205e+07,-6.018759946399999672e-01,-7.783445687799999746e+01,-7.773166096999999297e+01,-6.083840983599999586e-01
9.570424339471577108e+07,-6.009928440199999722e-01,-8.217848478000000512e+01,-7.621280032999999321e+01,-6.054933854299999751e-01
9.570824659727782011e+07,-6.015193336899999910e-01,-7.892636027899999362e+01,-7.859986170800000593e+01,-6.040794340899999781e-01
9.571224979983986914e+07,-6.015553408399999524e-01,-7.378717223600000352e+01,-7.477270331200000442e+01,-6.054309677600000494e-01
9.571625300240191817e+07,-6.024158901699999680e-01,-7.486351989300000298e+01,-7.724432068299999798e+01,-6.047320304800000157e-01
9.572025620496396720e+07,-6.013083196099999750e-01,-7.255807147100000520e+01,-7.251266883499999949e+01,-6.063065932900000288e-01
9.572425940752601624e+07,-6.018517052899999831e-01,-7.034673979900000518e+01,-7.070393191700000557e+01,-6.069589375899999695e-01
9.572826261008806527e+07,-6.012055776600000456e-01,-6.924914971299999422e+01,-6.855663504199999636e+01,-6.051223123000000204e-01
9.573226581265011430e+07,-6.028458797100000321e-01,-6.719007699399999467e+01,-6.879837320599999373e+01,-6.058956503800000393e-01
9.573626901521216333e+07,-6.013927369099999476e-01,-6.713052369999999769e+01,-6.648586926699999822e+01,-6.047697421900000148e-01
9.574027221777421236e+07,-6.025597165299999558e-01,-6.567883654099999546e+01,-6.594677729900000429e+01,-6.063598775399999807e-01
9.574427542033627629e+07,-6.030430948999999652e-01,-6.533615844899999558e+01,-6.523362394999999481e+01,-6.062281403699999460e-01
9.574827862289832532e+07,-6.005081623200000385e-01,-6.465071016900000700e+01,-6.417310262099999818e+01,-6.044868978799999848e-01
9.575228182546037436e+07,-6.020336436000000013e-01,-6.336015497900000071e+01,-6.460509771200000273e+01,-6.061440025600000059e-01
9.575628502802242339e+07,-6.033522967500000167e-01,-6.299664883399999837e+01,-6.334013662299999936e+01,-6.050695103000000019e-01
9.576028823058447242e+07,-6.019304722499999594e-01,-6.286897679900000213e+01,-6.315231977500000227e+01,-6.050938346799999978e-01
9.576429143314652145e+07,-6.010264586800000419e-01,-6.257583194200000065e+01,-6.310920968399999964e+01,-6.040301173200000040e-01
9.576829463570857048e+07,-6.018213269500000129e-01,-6.149161653400000205e+01,-6.266360961899999893e+01,-6.043306678800000054e-01
9.577229783827061951e+07,-6.011867537199999667e-01,-6.082691290599999689e+01,-6.201768215599999934e+01,-6.032435454400000285e-01
9.577630104083266854e+07,-6.010213438000000519e-01,-6.133896953099999649e+01,-6.103385169100000240e+01,-6.042699092900000180e-01
9.578030424339471757e+07,-6.029036936999999652e-01,-6.091759936599999747e+01,-6.174094644600000237e+01,-6.044869980200000548e-01
9.578430744595676661e+07,-6.014203903000000517e-01,-6.074095979100000164e+01,-6.065051299200000301e+01,-6.043862081799999952e-01
9.578831064851881564e+07,-6.010681404000000061e-01,-6.162753365199999678e+01,-6.058158047300000248e+01,-6.030408511499999458e-01
9.579231385108086467e+07,-6.014468129200000179e-01,-5.984344926600000036e+01,-6.040473589100000140e+01,-6.052449535499999644e-01
9.579631705364291370e+07,-6.017174394300000007e-01,-6.025619978099999940e+01,-6.046836141099999651e+01,-6.042799818299999792e-01
9.580032025620496273e+07,-6.008677556599999470e-01,-6.068849991999999816e+01,-6.018414417700000030e+01,-6.027261053700000426e-01
9.580432345876701176e+07,-5.997419200000000394e-01,-6.065430642599999800e+01,-6.055069730400000338e+01,-6.044184030800000551e-01
9.580832666132906079e+07,-6.004509726000000214e-01,-6.015630609099999759e+01,-6.080966255100000240e+01,-6.032501797299999469e-01
9.581232986389110982e+07,-6.000428124200000157e-01,-6.032631790700000352e+01,-6.056128486600000116e+01,-6.046485802500000117e-01
9.581633306645315886e+07,-5.997552768499999631e-01,-6.071488754699999646e+01,-6.075483470100000005e+01,-6.040362044599999480e-01
9.582033626901520789e+07,-5.984294395500000530e-01,-6.019687893999999773e+01,-6.025234837499999685e+01,-6.044364645099999933e-01
9.582433947157725692e+07,-6.005195699900000017e-01,-6.087945896499999776e+01,-6.031336239800000243e+01,-6.041429447899999694e-01
9.582834267413930595e+07,-6.000740089999999638e-01,-6.100334021799999817e+01,-6.086109929900000282e+01,-6.048080275999999644e-01
9.583234587670135498e+07,-5.990139727400000114e-01,-6.081426403100000044e+01,-6.088662175099999985e+01,-6.035003025399999776e-01
9.583634907926340401e+07,-6.004215160700000498e-01,-6.134113406899999887e+01,-6.178731739599999884e+01,-6.048014718599999950e-01
9.584035228182545304e+07,-5.994017414100000218e-01,-6.161860964099999904e+01,-6.165966593600000323e+01,-6.030641631499999988e-01
9.584435548438751698e+07,-5.981394858999999897e-01,-6.175480725500000290e+01,-6.116365414900000275e+01,-6.036083452099999525e-01
9.584835868694956601e+07,-5.994310894700000114e-01,-6.151390724200000193e+01,-6.144078505000000234e+01,-6.020314673200000133e-01
9.585236188951161504e+07,-5.996415271599999652e-01,-6.206622333899999688e+01,-6.221201368999999914e+01,-6.020677574599999637e-01
9.585636509207366407e+07,-5.985865241800000236e-01,-6.218096902100000278e+01,-6.262676486499999839e+01,-6.025770594599999530e-01
9.586036829463571310e+07,-5.991540784100000128e-01,-6.358798162899999795e+01,-6.232565309700000000e+01,-6.018085604399999733e-01
9.586437149719776213e+07,-5.990747346900000547e-01,-6.207123411399999924e+01,-6.216447324800000018e+01,-6.015352860499999510e-01
9.586837469975981116e+07,-5.985256228099999909e-01,-6.350502415100000064e+01,-6.381578310300000112e+01,-6.016985876599999505e-01
9.587237790232186019e+07,-5.977874804699999656e-01,-6.470956596000000616e+01,-6.355332898799999697e+01,-6.011017699499999756e-01
9.587638110488390923e+07,-5.994941141599999801e-01,-6.364587380199999700e+01,-6.462364509500000054e+01,-6.016040574100000038e-01
9.588038430744595826e+07,-5.977744521600000249e-01,-6.456654116800000054e+01,-6.313539414099999902e+01,-6.036055885600000170e-01
9.588438751000800729e+07,-5.990169706800000382e-01,-6.424775893100000701e+01,-6.581770630100000119e+01,-6.018803665699999916e-01
9.588839071257005632e+07,-5.994491491700000285e-01,-6.441460706499999844e+01,-6.470281635000000620e+01,-5.994719550599999502e-01
9.589239391513210535e+07,-5.996114737100000092e-01,-6.416625358899999299e+01,-6.491483241000000248e+01,-6.025171336100000330e-01
9.589639711769415438e+07,-5.994238524999999651e-01,-6.440179784100000404e+01,-6.432853346100000635e+01,-6.008075170600000181e-01
9.590040032025620341e+07,-5.994583634300000297e-01,-6.395264042400000193e+01,-6.615985466499999745e+01,-6.039977369700000320e-01
9.590440352281825244e+07,-5.988026969199999883e-01,-6.458430175200000178e+01,-6.495109175000000334e+01,-6.035927183499999460e-01
9.590840672538030148e+07,-5.983745949100000017e-01,-6.589446920999999691e+01,-6.620422606299999302e+01,-6.032057989000000342e-01
9.591240992794235051e+07,-5.987255316999999799e-01,-6.582815522500000327e+01,-6.668714651700000218e+01,-6.021414640700000209e-01
9.591641313050439954e+07,-5.979866946899999869e-01,-6.531885515599999792e+01,-6.533249660900000322e+01,-6.011394586999999623e-01
9.592041633306644857e+07,-6.002002005400000062e-01,-6.522477344000000699e+01,-6.446572952500000042e+01,-6.030560747700000057e-01
9.592441953562849760e+07,-5.992163672600000490e-01,-6.584379758900000468e+01,-6.634531731100000229e+01,-6.017829500300000412e-01
9.592842273819054663e+07,-5.992744671699999914e-01,-6.479147402499999941e+01,-6.529791686999999456e+01,-6.035539933000000357e-01
9.593242594075259566e+07,-5.975434366099999783e-01,-6.478778183199999319e+01,-6.430491924599999720e+01,-6.031357616100000429e-01
9.593642914331464469e+07,-5.997185689799999775e-01,-6.500016131300000666e+01,-6.418826800399999399e+01,-6.024779181099999548e-01
9.594043234587670863e+07,-5.988840892800000315e-01,-6.454738673399999982e+01,-6.507418079900000407e+01,-6.042095602899999474e-01
9.594443554843875766e+07,-5.978291004500000394e-01,-6.486566586099999654e+01,-6.458123200999999369e+01,-6.036007110300000145e-01
9.594843875100080669e+07,-5.972513535000000262e-01,-6.453533056999999928e+01,-6.617839749600000232e+01,-6.038919407999999711e-01
9.595244195356285572e+07,-5.977529328199999714e-01,-6.393515297700000133e+01,-6.319697842800000132e+01,-6.030121304000000126e-01
9.595644515612490475e+07,-5.995988412899999620e-01,-6.556093636800000013e+01,-6.626988512100000150e+01,-6.038789068300000062e-01
9.596044835868695378e+07,-5.992232412300000366e-01,-6.510637486000000251e+01,-6.415188679400000638e+01,-6.046707256000000141e-01
9.596445156124900281e+07,-5.990333007899999451e-01,-6.523007305400000178e+01,-6.355743601500000040e+01,-6.027997531500000061e-01
9.596845476381105185e+07,-5.995898746700000226e-01,-6.479760683199999960e+01,-6.342847723100000223e+01,-6.052915172899999696e-01
9.597245796637310088e+07,-5.998594037400000190e-01,-6.456524779900000510e+01,-6.474737932499999715e+01,-6.032090370599999529e-01
9.597646116893514991e+07,-5.992070344900000123e-01,-6.499370889700000475e+01,-6.506078205599999364e+01,-6.038602073300000095e-01
9.598046437149719894e+07,-6.010252234199999766e-01,-6.450546226100000524e+01,-6.610016416400000594e+01,-6.049223009499999915e-01
9.598446757405924797e+07,-6.000093227399999618e-01,-6.612949547099999847e+01,-6.553364638399999365e+01,-6.070207144200000515e-01
9.598847077662129700e+07,-6.006375165999999766e-01,-6.623165977300000407e+01,-6.521384517799999969e+01,-6.054234943799999824e-01
9.599247397918334603e+07,-6.007042797999999628e-01,-6.547282073899999943e+01,-6.524151689999999348e+01,-6.077136246200000036e-01
9.599647718174539506e+07,-5.994704820899999786e-01,-6.622731495300000404e+01,-6.568844702600000574e+01,-6.078514395999999875e-01
9.600048038430744410e+07,-6.016876882999999676e-01,-6.585861207199999967e+01,-6.633195402200000501e+01,-6.083809451299999616e-01
9.600448358686949313e+07,-6.010066674199999737e-01,-6.457748460099999477e+01,-6.606601464199999896e+01,-6.059298630999999657e-01
9.600848678943154216e+07,-6.002843566300000155e-01,-6.592067060200000128e+01,-6.648366066699999521e+01,-6.070774181500000477e-01
9.601248999199359119e+07,-6.028270691599999509e-01,-6.448471960099999478e+01,-6.542281616900000074e+01,-6.064096228899999996e-01
